Freq.	I(R9)
1.00000000000000e+01	(-4.00009435664873e+01dB,-4.48768947231670e-03°)
1.02329299228075e+01	(-4.00009428448768e+01dB,-4.81785951253576e-03°)
1.04712854805090e+01	(-4.00009421506076e+01dB,-5.15059175265001e-03°)
1.07151930523761e+01	(-4.00009414822101e+01dB,-5.48606209866800e-03°)
1.09647819614319e+01	(-4.00009408382694e+01dB,-5.82444794226761e-03°)
1.12201845430196e+01	(-4.00009402174217e+01dB,-6.16592825322856e-03°)
1.14815362149688e+01	(-4.00009396183529e+01dB,-6.51068367183559e-03°)
1.17489755493953e+01	(-4.00009390397942e+01dB,-6.85889660273627e-03°)
1.20226443461741e+01	(-4.00009384805203e+01dB,-7.21075130992473e-03°)
1.23026877081238e+01	(-4.00009379393465e+01dB,-7.56643401245173e-03°)
1.25892541179417e+01	(-4.00009374151265e+01dB,-7.92613298191956e-03°)
1.28824955169313e+01	(-4.00009369067499e+01dB,-8.29003864037050e-03°)
1.31825673855641e+01	(-4.00009364131396e+01dB,-8.65834366018014e-03°)
1.34896288259165e+01	(-4.00009359332498e+01dB,-9.03124306470613e-03°)
1.38038426460288e+01	(-4.00009354660635e+01dB,-9.40893433072991e-03°)
1.41253754462275e+01	(-4.00009350105910e+01dB,-9.79161749180823e-03°)
1.44543977074593e+01	(-4.00009345658670e+01dB,-1.01794952430186e-02°)
1.47910838816821e+01	(-4.00009341309492e+01dB,-1.05727730480559e-02°)
1.51356124843621e+01	(-4.00009337049155e+01dB,-1.09716592467494e-02°)
1.54881661891248e+01	(-4.00009332868632e+01dB,-1.13763651648862e-02°)
1.58489319246111e+01	(-4.00009328759060e+01dB,-1.17871052253460e-02°)
1.62181009735893e+01	(-4.00009324711726e+01dB,-1.22040970611754e-02°)
1.65958690743756e+01	(-4.00009320718053e+01dB,-1.26275616300644e-02°)
1.69824365246174e+01	(-4.00009316769575e+01dB,-1.30577233310890e-02°)
1.73780082874937e+01	(-4.00009312857920e+01dB,-1.34948101228890e-02°)
1.77827941003892e+01	(-4.00009308974796e+01dB,-1.39390536441416e-02°)
1.81970085860998e+01	(-4.00009305111968e+01dB,-1.43906893356458e-02°)
1.86208713666287e+01	(-4.00009301261246e+01dB,-1.48499565648851e-02°)
1.90546071796325e+01	(-4.00009297414466e+01dB,-1.53170987523415e-02°)
1.94984459975804e+01	(-4.00009293563473e+01dB,-1.57923635001516e-02°)
1.99526231496888e+01	(-4.00009289700097e+01dB,-1.62760027230067e-02°)
2.04173794466953e+01	(-4.00009285816147e+01dB,-1.67682727814691e-02°)
2.08929613085404e+01	(-4.00009281903389e+01dB,-1.72694346173680e-02°)
2.13796208950223e+01	(-4.00009277953522e+01dB,-1.77797538918675e-02°)
2.18776162394955e+01	(-4.00009273958171e+01dB,-1.82995011262743e-02°)
2.23872113856834e+01	(-4.00009269908865e+01dB,-1.88289518448178e-02°)
2.29086765276777e+01	(-4.00009265797013e+01dB,-1.93683867208802e-02°)
2.34422881531992e+01	(-4.00009261613894e+01dB,-1.99180917251285e-02°)
2.39883291901949e+01	(-4.00009257350641e+01dB,-2.04783582773508e-02°)
2.45470891568503e+01	(-4.00009252998208e+01dB,-2.10494834006410e-02°)
2.51188643150958e+01	(-4.00009248547364e+01dB,-2.16317698785763e-02°)
2.57039578276886e+01	(-4.00009243988673e+01dB,-2.22255264156818e-02°)
2.63026799189538e+01	(-4.00009239312461e+01dB,-2.28310678010037e-02°)
2.69153480392691e+01	(-4.00009234508815e+01dB,-2.34487150748761e-02°)
2.75422870333816e+01	(-4.00009229567540e+01dB,-2.40787956988705e-02°)
2.81838293126445e+01	(-4.00009224478163e+01dB,-2.47216437295790e-02°)
2.88403150312660e+01	(-4.00009219229884e+01dB,-2.53775999952912e-02°)
2.95120922666638e+01	(-4.00009213811573e+01dB,-2.60470122769026e-02°)
3.01995172040201e+01	(-4.00009208211736e+01dB,-2.67302354922128e-02°)
3.09029543251359e+01	(-4.00009202418498e+01dB,-2.74276318838155e-02°)
3.16227766016838e+01	(-4.00009196419569e+01dB,-2.81395712114324e-02°)
3.23593656929628e+01	(-4.00009190202225e+01dB,-2.88664309475595e-02°)
3.31131121482591e+01	(-4.00009183753281e+01dB,-2.96085964779616e-02°)
3.38844156139202e+01	(-4.00009177059055e+01dB,-3.03664613055995e-02°)
3.46736850452531e+01	(-4.00009170105348e+01dB,-3.11404272596756e-02°)
3.54813389233575e+01	(-4.00009162877413e+01dB,-3.19309047083137e-02°)
3.63078054770101e+01	(-4.00009155359914e+01dB,-3.27383127762462e-02°)
3.71535229097172e+01	(-4.00009147536914e+01dB,-3.35630795672554e-02°)
3.80189396320561e+01	(-4.00009139391813e+01dB,-3.44056423909604e-02°)
3.89045144994280e+01	(-4.00009130907335e+01dB,-3.52664479947070e-02°)
3.98107170553497e+01	(-4.00009122065484e+01dB,-3.61459528006727e-02°)
4.07380277804112e+01	(-4.00009112847503e+01dB,-3.70446231478086e-02°)
4.16869383470335e+01	(-4.00009103233846e+01dB,-3.79629355391226e-02°)
4.26579518801592e+01	(-4.00009093204113e+01dB,-3.89013768944992e-02°)
4.36515832240165e+01	(-4.00009082737035e+01dB,-3.98604448089429e-02°)
4.46683592150962e+01	(-4.00009071810409e+01dB,-4.08406478163118e-02°)
4.57088189614874e+01	(-4.00009060401056e+01dB,-4.18425056594865e-02°)
4.67735141287197e+01	(-4.00009048484777e+01dB,-4.28665495655910e-02°)
4.78630092322638e+01	(-4.00009036036297e+01dB,-4.39133225282224e-02°)
4.89778819368445e+01	(-4.00009023029206e+01dB,-4.49833795950913e-02°)
5.01187233627271e+01	(-4.00009009435919e+01dB,-4.60772881628630e-02°)
5.12861383991364e+01	(-4.00008995227605e+01dB,-4.71956282778696e-02°)
5.24807460249772e+01	(-4.00008980374118e+01dB,-4.83389929441245e-02°)
5.37031796370252e+01	(-4.00008964843956e+01dB,-4.95079884377324e-02°)
5.49540873857623e+01	(-4.00008948604181e+01dB,-5.07032346287747e-02°)
5.62341325190348e+01	(-4.00008931620338e+01dB,-5.19253653100168e-02°)
5.75439937337156e+01	(-4.00008913856409e+01dB,-5.31750285333798e-02°)
5.88843655355588e+01	(-4.00008895274708e+01dB,-5.44528869538872e-02°)
6.02559586074357e+01	(-4.00008875835824e+01dB,-5.57596181810824e-02°)
6.16595001861481e+01	(-4.00008855498523e+01dB,-5.70959151389756e-02°)
6.30957344480192e+01	(-4.00008834219667e+01dB,-5.84624864335448e-02°)
6.45654229034654e+01	(-4.00008811954119e+01dB,-5.98600567290097e-02°)
6.60693448007595e+01	(-4.00008788654650e+01dB,-6.12893671324111e-02°)
6.76082975391980e+01	(-4.00008764271839e+01dB,-6.27511755870367e-02°)
6.91830970918935e+01	(-4.00008738753969e+01dB,-6.42462572748236e-02°)
7.07945784384136e+01	(-4.00008712046907e+01dB,-6.57754050278690e-02°)
7.24435960074988e+01	(-4.00008684094007e+01dB,-6.73394297493099e-02°)
7.41310241300916e+01	(-4.00008654835973e+01dB,-6.89391608440377e-02°)
7.58577575029182e+01	(-4.00008624210743e+01dB,-7.05754466590225e-02°)
7.76247116628690e+01	(-4.00008592153362e+01dB,-7.22491549337844e-02°)
7.94328234724279e+01	(-4.00008558595825e+01dB,-7.39611732613787e-02°)
8.12830516164097e+01	(-4.00008523466952e+01dB,-7.57124095596688e-02°)
8.31763771102669e+01	(-4.00008486692231e+01dB,-7.75037925537382e-02°)
8.51138038202374e+01	(-4.00008448193652e+01dB,-7.93362722691037e-02°)
8.70963589956078e+01	(-4.00008407889554e+01dB,-8.12108205365796e-02°)
8.91250938133743e+01	(-4.00008365694446e+01dB,-8.31284315085123e-02°)
9.12010839355907e+01	(-4.00008321518824e+01dB,-8.50901221871209e-02°)
9.33254300796988e+01	(-4.00008275268982e+01dB,-8.70969329649485e-02°)
9.54992586021433e+01	(-4.00008226846815e+01dB,-8.91499281778082e-02°)
9.77237220955808e+01	(-4.00008176149615e+01dB,-9.12501966705259e-02°)
9.99999999999997e+01	(-4.00008123069836e+01dB,-9.33988523758570e-02°)
1.02329299228075e+02	(-4.00008067494889e+01dB,-9.55970349065790e-02°)
1.04712854805090e+02	(-4.00008009306889e+01dB,-9.78459101616844e-02°)
1.07151930523760e+02	(-4.00007948382407e+01dB,-1.00146670946311e-01°)
1.09647819614318e+02	(-4.00007884592207e+01dB,-1.02500537606207e-01°)
1.12201845430196e+02	(-4.00007817800980e+01dB,-1.04908758676948e-01°)
1.14815362149688e+02	(-4.00007747867043e+01dB,-1.07372611548255e-01°)
1.17489755493953e+02	(-4.00007674642054e+01dB,-1.09893403143759e-01°)
1.20226443461741e+02	(-4.00007597970685e+01dB,-1.12472470616583e-01°)
1.23026877081238e+02	(-4.00007517690304e+01dB,-1.15111182061109e-01°)
1.25892541179416e+02	(-4.00007433630610e+01dB,-1.17810937241599e-01°)
1.28824955169313e+02	(-4.00007345613294e+01dB,-1.20573168337408e-01°)
1.31825673855640e+02	(-4.00007253451651e+01dB,-1.23399340705996e-01°)
1.34896288259165e+02	(-4.00007156950184e+01dB,-1.26290953663562e-01°)
1.38038426460288e+02	(-4.00007055904191e+01dB,-1.29249541284070e-01°)
1.41253754462275e+02	(-4.00006950099321e+01dB,-1.32276673216900e-01°)
1.44543977074592e+02	(-4.00006839311142e+01dB,-1.35373955523749e-01°)
1.47910838816820e+02	(-4.00006723304637e+01dB,-1.38543031535111e-01°)
1.51356124843620e+02	(-4.00006601833724e+01dB,-1.41785582726908e-01°)
1.54881661891248e+02	(-4.00006474640731e+01dB,-1.45103329617712e-01°)
1.58489319246111e+02	(-4.00006341455845e+01dB,-1.48498032687053e-01°)
1.62181009735892e+02	(-4.00006201996539e+01dB,-1.51971493315411e-01°)
1.65958690743755e+02	(-4.00006055966978e+01dB,-1.55525554746291e-01°)
1.69824365246174e+02	(-4.00005903057389e+01dB,-1.59162103071028e-01°)
1.73780082874937e+02	(-4.00005742943398e+01dB,-1.62883068236882e-01°)
1.77827941003892e+02	(-4.00005575285353e+01dB,-1.66690425078830e-01°)
1.81970085860998e+02	(-4.00005399727595e+01dB,-1.70586194375990e-01°)
1.86208713666286e+02	(-4.00005215897702e+01dB,-1.74572443932860e-01°)
1.90546071796324e+02	(-4.00005023405706e+01dB,-1.78651289686282e-01°)
1.94984459975804e+02	(-4.00004821843262e+01dB,-1.82824896838697e-01°)
1.99526231496887e+02	(-4.00004610782775e+01dB,-1.87095481018331e-01°)
2.04173794466952e+02	(-4.00004389776508e+01dB,-1.91465309466928e-01°)
2.08929613085403e+02	(-4.00004158355612e+01dB,-1.95936702255867e-01°)
2.13796208950222e+02	(-4.00003916029146e+01dB,-2.00512033531225e-01°)
2.18776162394954e+02	(-4.00003662283036e+01dB,-2.05193732788574e-01°)
2.23872113856833e+02	(-4.00003396578968e+01dB,-2.09984286178367e-01°)
2.29086765276776e+02	(-4.00003118353265e+01dB,-2.14886237842457e-01°)
2.34422881531991e+02	(-4.00002827015680e+01dB,-2.19902191282792e-01°)
2.39883291901948e+02	(-4.00002521948135e+01dB,-2.25034810762901e-01°)
2.45470891568502e+02	(-4.00002202503429e+01dB,-2.30286822743232e-01°)
2.51188643150957e+02	(-4.00001868003855e+01dB,-2.35661017350908e-01°)
2.57039578276885e+02	(-4.00001517739754e+01dB,-2.41160249885194e-01°)
2.63026799189537e+02	(-4.00001150968018e+01dB,-2.46787442359157e-01°)
2.69153480392690e+02	(-4.00000766910512e+01dB,-2.52545585078887e-01°)
2.75422870333816e+02	(-4.00000364752415e+01dB,-2.58437738260916e-01°)
2.81838293126444e+02	(-3.99999943640500e+01dB,-2.64467033689088e-01°)
2.88403150312659e+02	(-3.99999502681309e+01dB,-2.70636676411813e-01°)
2.95120922666637e+02	(-3.99999040939274e+01dB,-2.76949946480700e-01°)
3.01995172040200e+02	(-3.99998557434711e+01dB,-2.83410200731949e-01°)
3.09029543251358e+02	(-3.99998051141761e+01dB,-2.90020874611298e-01°)
3.16227766016837e+02	(-3.99997520986188e+01dB,-2.96785484044009e-01°)
3.23593656929627e+02	(-3.99996965843118e+01dB,-3.03707627350946e-01°)
3.31131121482590e+02	(-3.99996384534642e+01dB,-3.10790987212038e-01°)
3.38844156139201e+02	(-3.99995775827303e+01dB,-3.18039332678485e-01°)
3.46736850452530e+02	(-3.99995138429503e+01dB,-3.25456521235006e-01°)
3.54813389233574e+02	(-3.99994470988731e+01dB,-3.33046500913588e-01°)
3.63078054770100e+02	(-3.99993772088712e+01dB,-3.40813312460009e-01°)
3.71535229097171e+02	(-3.99993040246383e+01dB,-3.48761091555047e-01°)
3.80189396320559e+02	(-3.99992273908752e+01dB,-3.56894071091343e-01°)
3.89045144994279e+02	(-3.99991471449592e+01dB,-3.65216583508021e-01°)
3.98107170553495e+02	(-3.99990631165980e+01dB,-3.73733063184530e-01°)
4.07380277804111e+02	(-3.99989751274704e+01dB,-3.82448048895403e-01°)
4.16869383470333e+02	(-3.99988829908435e+01dB,-3.91366186327886e-01°)
4.26579518801591e+02	(-3.99987865111797e+01dB,-4.00492230664120e-01°)
4.36515832240164e+02	(-3.99986854837176e+01dB,-4.09831049229991e-01°)
4.46683592150961e+02	(-3.99985796940392e+01dB,-4.19387624212569e-01°)
4.57088189614873e+02	(-3.99984689176126e+01dB,-4.29167055448055e-01°)
4.67735141287196e+02	(-3.99983529193154e+01dB,-4.39174563283035e-01°)
4.78630092322636e+02	(-3.99982314529344e+01dB,-4.49415491510359e-01°)
4.89778819368444e+02	(-3.99981042606415e+01dB,-4.59895310383012e-01°)
5.01187233627270e+02	(-3.99979710724458e+01dB,-4.70619619707680e-01°)
5.12861383991362e+02	(-3.99978316056190e+01dB,-4.81594152020898e-01°)
5.24807460249770e+02	(-3.99976855640946e+01dB,-4.92824775850510e-01°)
5.37031796370250e+02	(-3.99975326378364e+01dB,-5.04317499065164e-01°)
5.49540873857622e+02	(-3.99973725021794e+01dB,-5.16078472314680e-01°)
5.62341325190346e+02	(-3.99972048171396e+01dB,-5.28113992564422e-01°)
5.75439937337154e+02	(-3.99970292266889e+01dB,-5.40430506726947e-01°)
5.88843655355586e+02	(-3.99968453579968e+01dB,-5.53034615394124e-01°)
6.02559586074355e+02	(-3.99966528206378e+01dB,-5.65933076673211e-01°)
6.16595001861479e+02	(-3.99964512057589e+01dB,-5.79132810130780e-01°)
6.30957344480190e+02	(-3.99962400852075e+01dB,-5.92640900847955e-01°)
6.45654229034652e+02	(-3.99960190106208e+01dB,-6.06464603591278e-01°)
6.60693448007592e+02	(-3.99957875124691e+01dB,-6.20611347103290e-01°)
6.76082975391978e+02	(-3.99955450990550e+01dB,-6.35088738517358e-01°)
6.91830970918933e+02	(-3.99952912554643e+01dB,-6.49904567901170e-01°)
7.07945784384134e+02	(-3.99950254424688e+01dB,-6.65066812933767e-01°)
7.24435960074986e+02	(-3.99947470953749e+01dB,-6.80583643721853e-01°)
7.41310241300914e+02	(-3.99944556228178e+01dB,-6.96463427759872e-01°)
7.58577575029180e+02	(-3.99941504055013e+01dB,-7.12714735040150e-01°)
7.76247116628688e+02	(-3.99938307948734e+01dB,-7.29346343318704e-01°)
7.94328234724277e+02	(-3.99934961117411e+01dB,-7.46367243543539e-01°)
8.12830516164095e+02	(-3.99931456448189e+01dB,-7.63786645451359e-01°)
8.31763771102666e+02	(-3.99927786492103e+01dB,-7.81613983340342e-01°)
8.51138038202372e+02	(-3.99923943448116e+01dB,-7.99858922026089e-01°)
8.70963589956076e+02	(-3.99919919146470e+01dB,-8.18531362988015e-01°)
8.91250938133741e+02	(-3.99915705031172e+01dB,-8.37641450716153e-01°)
9.12010839355905e+02	(-3.99911292141683e+01dB,-8.57199579264499e-01°)
9.33254300796986e+02	(-3.99906671093732e+01dB,-8.77216399022737e-01°)
9.54992586021431e+02	(-3.99901832059213e+01dB,-8.97702823713902e-01°)
9.77237220955805e+02	(-3.99896764745095e+01dB,-9.18670037630115e-01°)
9.99999999999994e+02	(-3.99891458371365e+01dB,-9.40129503115936e-01°)
1.02329299228075e+03	(-3.99885901647879e+01dB,-9.62092968311787e-01°)
1.04712854805089e+03	(-3.99880082750123e+01dB,-9.84572475169460e-01°)
1.07151930523760e+03	(-3.99873989293826e+01dB,-1.00758036775238e+00°)
1.09647819614318e+03	(-3.99867608308306e+01dB,-1.03112930083563e+00°)
1.12201845430196e+03	(-3.99860926208587e+01dB,-1.05523224881859e+00°)
1.14815362149688e+03	(-3.99853928766168e+01dB,-1.07990251496789e+00°)
1.17489755493952e+03	(-3.99846601078350e+01dB,-1.10515374100576e+00°)
1.20226443461741e+03	(-3.99838927536136e+01dB,-1.13099991706163e+00°)
1.23026877081237e+03	(-3.99830891790548e+01dB,-1.15745539200685e+00°)
1.25892541179416e+03	(-3.99822476717332e+01dB,-1.18453488419134e+00°)
1.28824955169313e+03	(-3.99813664379966e+01dB,-1.21225349260391e+00°)
1.31825673855640e+03	(-3.99804435990868e+01dB,-1.24062670847879e+00°)
1.34896288259165e+03	(-3.99794771870740e+01dB,-1.26967042737310e+00°)
1.38038426460288e+03	(-3.99784651405919e+01dB,-1.29940096174050e+00°)
1.41253754462275e+03	(-3.99774053003691e+01dB,-1.32983505402850e+00°)
1.44543977074592e+03	(-3.99762954045406e+01dB,-1.36098989032961e+00°)
1.47910838816820e+03	(-3.99751330837334e+01dB,-1.39288311461636e+00°)
1.51356124843620e+03	(-3.99739158559103e+01dB,-1.42553284359543e+00°)
1.54881661891247e+03	(-3.99726411209653e+01dB,-1.45895768221484e+00°)
1.58489319246110e+03	(-3.99713061550528e+01dB,-1.49317673986431e+00°)
1.62181009735892e+03	(-3.99699081046378e+01dB,-1.52820964730848e+00°)
1.65958690743755e+03	(-3.99684439802594e+01dB,-1.56407657439774e+00°)
1.69824365246173e+03	(-3.99669106499818e+01dB,-1.60079824860261e+00°)
1.73780082874936e+03	(-3.99653048325288e+01dB,-1.63839597442318e+00°)
1.77827941003891e+03	(-3.99636230900771e+01dB,-1.67689165372711e+00°)
1.81970085860997e+03	(-3.99618618206908e+01dB,-1.71630780707360e+00°)
1.86208713666286e+03	(-3.99600172503874e+01dB,-1.75666759608566e+00°)
1.90546071796323e+03	(-3.99580854248057e+01dB,-1.79799484693756e+00°)
1.94984459975803e+03	(-3.99560622004629e+01dB,-1.84031407502837e+00°)
1.99526231496887e+03	(-3.99539432355707e+01dB,-1.88365051091887e+00°)
2.04173794466952e+03	(-3.99517239803980e+01dB,-1.92803012761403e+00°)
2.08929613085403e+03	(-3.99493996671489e+01dB,-1.97347966927980e+00°)
2.13796208950222e+03	(-3.99469652993309e+01dB,-2.02002668148964e+00°)
2.18776162394954e+03	(-3.99444156405883e+01dB,-2.06769954310372e+00°)
2.23872113856832e+03	(-3.99417452029750e+01dB,-2.11652749989087e+00°)
2.29086765276776e+03	(-3.99389482346266e+01dB,-2.16654070001309e+00°)
2.34422881531991e+03	(-3.99360187068111e+01dB,-2.21777023149995e+00°)
2.39883291901947e+03	(-3.99329503003182e+01dB,-2.27024816185276e+00°)
2.45470891568501e+03	(-3.99297363911513e+01dB,-2.32400757992675e+00°)
2.51188643150956e+03	(-3.99263700354860e+01dB,-2.37908264025239e+00°)
2.57039578276885e+03	(-3.99228439538510e+01dB,-2.43550860997143e+00°)
2.63026799189536e+03	(-3.99191505144953e+01dB,-2.49332191857466e+00°)
2.69153480392690e+03	(-3.99152817158871e+01dB,-2.55256021064498e+00°)
2.75422870333815e+03	(-3.99112291683050e+01dB,-2.61326240182685e+00°)
2.81838293126443e+03	(-3.99069840744571e+01dB,-2.67546873826006e+00°)
2.88403150312658e+03	(-3.99025372090936e+01dB,-2.73922085973577e+00°)
2.95120922666636e+03	(-3.98978788975266e+01dB,-2.80456186685681e+00°)
3.01995172040199e+03	(-3.98929989930272e+01dB,-2.87153639250215e+00°)
3.09029543251357e+03	(-3.98878868529997e+01dB,-2.94019067793072e+00°)
3.16227766016836e+03	(-3.98825313138927e+01dB,-3.01057265387722e+00°)
3.23593656929626e+03	(-3.98769206647495e+01dB,-3.08273202703332e+00°)
3.31131121482589e+03	(-3.98710426193310e+01dB,-3.15672037233582e+00°)
3.38844156139200e+03	(-3.98648842867155e+01dB,-3.23259123152281e+00°)
3.46736850452529e+03	(-3.98584321402925e+01dB,-3.31040021846130e+00°)
3.54813389233573e+03	(-3.98516719850426e+01dB,-3.39020513179233e+00°)
3.63078054770099e+03	(-3.98445889230082e+01dB,-3.47206607549147e+00°)
3.71535229097170e+03	(-3.98371673168348e+01dB,-3.55604558799732e+00°)
3.80189396320558e+03	(-3.98293907512648e+01dB,-3.64220878062062e+00°)
3.89045144994278e+03	(-3.98212419924577e+01dB,-3.73062348601468e+00°)
3.98107170553494e+03	(-3.98127029449902e+01dB,-3.82136041755899e+00°)
4.07380277804110e+03	(-3.98037546063966e+01dB,-3.91449334059457e+00°)
4.16869383470332e+03	(-3.97943770190829e+01dB,-4.01009925653518e+00°)
4.26579518801589e+03	(-3.97845492194418e+01dB,-4.10825860098207e+00°)
4.36515832240162e+03	(-3.97742491839941e+01dB,-4.20905545708026e+00°)
4.46683592150960e+03	(-3.97634537723406e+01dB,-4.31257778548045e+00°)
4.57088189614871e+03	(-3.97521386667250e+01dB,-4.41891767240457e+00°)
4.67735141287194e+03	(-3.97402783079695e+01dB,-4.52817159747284e+00°)
4.78630092322634e+03	(-3.97278458275329e+01dB,-4.64044072311354e+00°)
4.89778819368442e+03	(-3.97148129754266e+01dB,-4.75583120757792e+00°)
5.01187233627268e+03	(-3.97011500436959e+01dB,-4.87445454378883e+00°)
5.12861383991361e+03	(-3.96868257851496e+01dB,-4.99642792649726e+00°)
5.24807460249768e+03	(-3.96718073270034e+01dB,-5.12187465048587e+00°)
5.37031796370248e+03	(-3.96560600790683e+01dB,-5.25092454286490e+00°)
5.49540873857620e+03	(-3.96395476360830e+01dB,-5.38371443284473e+00°)
5.62341325190344e+03	(-3.96222316737705e+01dB,-5.52038866274743e+00°)
5.75439937337152e+03	(-3.96040718381366e+01dB,-5.66109964446385e+00°)
5.88843655355584e+03	(-3.95850256275193e+01dB,-5.80600846603660e+00°)
6.02559586074353e+03	(-3.95650482668373e+01dB,-5.95528555360973e+00°)
6.16595001861477e+03	(-3.95440925734375e+01dB,-6.10911139461336e+00°)
6.30957344480188e+03	(-3.95221088139062e+01dB,-6.26767732875897e+00°)
6.45654229034650e+03	(-3.94990445511411e+01dB,-6.43118641422250e+00°)
6.60693448007590e+03	(-3.94748444809204e+01dB,-6.59985437733173e+00°)
6.76082975391976e+03	(-3.94494502571577e+01dB,-6.77391065510050e+00°)
6.91830970918931e+03	(-3.94228003049405e+01dB,-6.95359954116970e+00°)
